
T0E5C 000:295 SEGGER J-Link V5.02f Log File (0000ms, 0271ms total)
T0E5C 000:295 DLL Compiled: Oct  2 2015 20:51:34 (0000ms, 0271ms total)
T0E5C 000:295 Logging started @ 2017-12-25 16:10 (0000ms, 0271ms total)
T0E5C 000:295 JLINK_SetWarnOutHandler(...) (0000ms, 0271ms total)
T0E5C 000:295 JLINK_OpenEx(...)
Firmware: J-Link ARM-OB STM32 compiled Aug 22 2012 19:52:04
Hardware: V7.00
S/N: 305760245
Feature(s): RDI,FlashDL,FlashBP,JFlash,GDBFull  returns O.K. (0272ms, 0543ms total)
T0E5C 000:567 JLINK_SetErrorOutHandler(...) (0000ms, 0543ms total)
T0E5C 000:567 JLINK_ExecCommand("ProjectFile = "E:\Boot_Loader\Boot_MCU\2_Proj_K22\JLinkSettings.ini"", ...)Device "UNSPECIFIED" selected.  returns 0x00 (0009ms, 0552ms total)
T0E5C 000:580 JLINK_ExecCommand("Device = MKS22FN256xxx12", ...)Device "UNSPECIFIED" selected.  returns 0x00 (0002ms, 0554ms total)
T0E5C 000:582 JLINK_ExecCommand("DisableConnectionTimeout", ...)  returns 0x01 (0000ms, 0554ms total)
T0E5C 000:582 JLINK_GetHardwareVersion()  returns 0x11170 (0000ms, 0554ms total)
T0E5C 000:582 JLINK_GetDLLVersion()  returns 50206 (0000ms, 0554ms total)
T0E5C 000:582 JLINK_GetFirmwareString(...) (0000ms, 0554ms total)
T0E5C 000:589 JLINK_GetDLLVersion()  returns 50206 (0000ms, 0554ms total)
T0E5C 000:589 JLINK_GetCompileDateTime() (0000ms, 0554ms total)
T0E5C 000:590 JLINK_GetFirmwareString(...) (0000ms, 0554ms total)
T0E5C 000:592 JLINK_GetHardwareVersion()  returns 0x11170 (0000ms, 0554ms total)
T0E5C 000:600 JLINK_TIF_Select(JLINKARM_TIF_SWD)  returns 0x00 (0004ms, 0558ms total)
T0E5C 000:604 JLINK_SetSpeed(10000) (0001ms, 0559ms total)
T0E5C 000:605 JLINK_GetId() >0x108 TIF>Found SWD-DP with ID 0x2BA01477 >0x0D TIF> >0x21 TIF> >0x0D TIF> >0x28 TIF> >0x0D TIF> >0x28 TIF> >0x0D TIF> >0x21 TIF> >0x0D TIF> >0x28 TIF> >0x0D TIF> >0x21 TIF> >0x0D TIF> >0x21 TIF> >0x0D TIF> >0x21 TIF> >0x0D TIF> >0x21 TIF> >0x0D TIF> >0x28 TIF> >0x0D TIF> >0x28 TIF> >0x0D TIF> >0x21 TIF> >0x0D TIF> >0x28 TIF> >0x0D TIF> >0x28 TIF> >0x0D TIF> >0x28 TIF> >0x0D TIF> >0x21 TIF> >0x0D TIF> >0x21 TIF> >0x0D TIF> >0x28 TIF> >0x0D TIF> >0x21 TIF> >0x0D TIF>
 >0x21 TIF>Found Cortex-M4 r0p1, Little endian. -- CPU_ReadMem(4 bytes @ 0xE000EDF0) -- CPU_WriteMem(4 bytes @ 0xE000EDF0) -- CPU_ReadMem(4 bytes @ 0xE0002000)FPUnit: 6 code (BP) slots and 2 literal slots -- CPU_ReadMem(4 bytes @ 0xE000EDFC) -- CPU_WriteMem(4 bytes @ 0xE000EDFC) -- CPU_ReadMem(4 bytes @ 0xE0001000) -- CPU_WriteMem(4 bytes @ 0xE0001000) -- CPU_ReadMem(4 bytes @ 0xE000ED88) -- CPU_WriteMem(4 bytes @ 0xE000ED88) -- CPU_ReadMem(4 bytes @ 0xE000ED88) -- CPU_WriteMem(4 bytes @ 0xE000ED88)
CoreSight components:ROMTbl 0 @ E00FF000 -- CPU_ReadMem(16 bytes @ 0xE00FF000) -- CPU_ReadMem(16 bytes @ 0xE000EFF0) -- CPU_ReadMem(16 bytes @ 0xE000EFE0)ROMTbl 0 [0]: FFF0F000, CID: B105E00D, PID: 000BB00C SCS -- CPU_ReadMem(16 bytes @ 0xE0001FF0) -- CPU_ReadMem(16 bytes @ 0xE0001FE0)ROMTbl 0 [1]: FFF02000, CID: B105E00D, PID: 003BB002 DWT -- CPU_ReadMem(16 bytes @ 0xE0002FF0) -- CPU_ReadMem(16 bytes @ 0xE0002FE0)ROMTbl 0 [2]: FFF03000, CID: B105E00D, PID: 002BB003 FPB
 -- CPU_ReadMem(16 bytes @ 0xE0000FF0) -- CPU_ReadMem(16 bytes @ 0xE0000FE0)ROMTbl 0 [3]: FFF01000, CID: B105E00D, PID: 003BB001 ITM -- CPU_ReadMem(16 bytes @ 0xE00FF010) -- CPU_ReadMem(16 bytes @ 0xE0040FF0) -- CPU_ReadMem(16 bytes @ 0xE0040FE0)ROMTbl 0 [4]: FFF41000, CID: B105900D, PID: 000BB9A1 TPIU -- CPU_ReadMem(16 bytes @ 0xE00FF020) >0x0D TIF> >0x21 TIF>  returns 0x2BA01477 (0096ms, 0655ms total)
T0E5C 000:701 JLINK_GetDLLVersion()  returns 50206 (0000ms, 0655ms total)
T0E5C 000:701 JLINK_CORE_GetFound()  returns 0xE0000FF (0000ms, 0655ms total)
T0E5C 000:701 JLINK_GetDebugInfo(0x100) -- Value=0xE00FF003  returns 0x00 (0000ms, 0655ms total)
T0E5C 000:704 JLINK_GetDebugInfo(0x100) -- Value=0xE00FF003  returns 0x00 (0000ms, 0655ms total)
T0E5C 000:704 JLINK_GetDebugInfo(0x101) -- Value=0x00000000  returns 0x00 (0000ms, 0655ms total)
T0E5C 000:704 JLINK_ReadMem (0xE0041FF0, 0x0010 Bytes, ...) -- CPU is running -- CPU_ReadMem(16 bytes @ 0xE0041FF0) - Data: 00 00 00 00 00 00 00 00 00 00 00 00 00 00 00 00  returns 0x00 (0001ms, 0656ms total)
T0E5C 000:705 JLINK_GetDebugInfo(0x102) -- Value=0x00000000  returns 0x00 (0000ms, 0656ms total)
T0E5C 000:705 JLINK_GetDebugInfo(0x103) -- Value=0xE0040000  returns 0x00 (0000ms, 0656ms total)
T0E5C 000:705 JLINK_GetDebugInfo(0x104) -- Value=0xE0000000  returns 0x00 (0000ms, 0656ms total)
T0E5C 000:705 JLINK_GetDebugInfo(0x105) -- Value=0xE0001000  returns 0x00 (0000ms, 0656ms total)
T0E5C 000:705 JLINK_GetDebugInfo(0x106) -- Value=0xE0002000  returns 0x00 (0000ms, 0656ms total)
T0E5C 000:705 JLINK_GetDebugInfo(0x107) -- Value=0xE000E000  returns 0x00 (0000ms, 0656ms total)
T0E5C 000:705 JLINK_GetDebugInfo(0x10C) -- Value=0xE000EDF0  returns 0x00 (0000ms, 0656ms total)
T0E5C 000:705 JLINK_ReadMemU32(0xE000EF40, 0x0001 Items, ...) -- CPU is running -- CPU_ReadMem(4 bytes @ 0xE000EF40) - Data: 21 00 11 10  returns 0x01 (0001ms, 0657ms total)
T0E5C 000:706 JLINK_ReadMemU32(0xE000EF44, 0x0001 Items, ...) -- CPU is running -- CPU_ReadMem(4 bytes @ 0xE000EF44) - Data: 11 00 00 11  returns 0x01 (0001ms, 0658ms total)
T0E5C 000:707 JLINK_ReadMemU32(0xE000ED00, 0x0001 Items, ...) -- CPU is running -- CPU_ReadMem(4 bytes @ 0xE000ED00) - Data: 41 C2 0F 41  returns 0x01 (0001ms, 0659ms total)
T0E5C 000:708 JLINK_SetResetType(JLINKARM_RESET_TYPE_NORMAL)  returns JLINKARM_RESET_TYPE_NORMAL (0000ms, 0659ms total)
T0E5C 000:708 JLINK_Reset() -- CPU is running -- CPU_WriteMem(4 bytes @ 0xE000EDF0) -- CPU is running -- CPU_WriteMem(4 bytes @ 0xE000EDFC) >0x35 TIF> -- CPU is running -- CPU_WriteMem(4 bytes @ 0xE000ED0C) -- CPU is running -- CPU_ReadMem(4 bytes @ 0xE000EDF0) -- CPU is running -- CPU_ReadMem(4 bytes @ 0xE000EDF0) -- CPU is running -- CPU_WriteMem(4 bytes @ 0xE000EDF0) -- CPU is running -- CPU_WriteMem(4 bytes @ 0xE000EDFC) -- CPU is running -- CPU_ReadMem(4 bytes @ 0xE000EDF0)
 -- CPU_WriteMem(4 bytes @ 0xE0002000) -- CPU_ReadMem(4 bytes @ 0xE000EDFC) -- CPU_ReadMem(4 bytes @ 0xE0001000) (0026ms, 0685ms total)
T0E5C 000:734 JLINK_Halt()  returns 0x00 (0000ms, 0685ms total)
T0E5C 000:734 JLINK_IsHalted()  returns TRUE (0000ms, 0685ms total)
T0E5C 000:734 JLINK_ReadMemU32(0xE000EDF0, 0x0001 Items, ...) -- CPU_ReadMem(4 bytes @ 0xE000EDF0) - Data: 03 00 03 00  returns 0x01 (0001ms, 0686ms total)
T0E5C 000:735 JLINK_WriteU32(0xE000EDF0, 0xA05F0003) -- CPU_WriteMem(4 bytes @ 0xE000EDF0)  returns 0x00 (0001ms, 0687ms total)
T0E5C 000:736 JLINK_WriteU32(0xE000EDFC, 0x01000000) -- CPU_WriteMem(4 bytes @ 0xE000EDFC)  returns 0x00 (0001ms, 0688ms total)
T0E5C 000:747 JLINK_GetHWStatus(...)  returns 0x00 (0001ms, 0689ms total)
T0E5C 000:754 JLINK_GetNumBPUnits(Type = 0xFFFFFF00)  returns 0x06 (0000ms, 0689ms total)
T0E5C 000:754 JLINK_GetNumBPUnits(Type = 0xF0)  returns 0x2000 (0000ms, 0689ms total)
T0E5C 000:754 JLINK_GetNumWPUnits()  returns 0x04 (0000ms, 0689ms total)
T0E5C 000:760 JLINK_GetSpeed()  returns 0xFA0 (0000ms, 0689ms total)
T0E5C 000:764 JLINK_ReadMemU32(0xE000E004, 0x0001 Items, ...) -- CPU_ReadMem(4 bytes @ 0xE000E004) - Data: 03 00 00 00  returns 0x01 (0001ms, 0690ms total)
T0E5C 000:765 JLINK_ReadMemU32(0xE000E004, 0x0001 Items, ...) -- CPU_ReadMem(4 bytes @ 0xE000E004) - Data: 03 00 00 00  returns 0x01 (0001ms, 0691ms total)
T0E5C 000:766 JLINK_WriteMem(0xE0001000, 0x001C Bytes, ...) - Data: 01 00 00 00 00 00 00 00 00 00 00 00 00 00 00 00 ... -- CPU_WriteMem(28 bytes @ 0xE0001000)  returns 0x1C (0002ms, 0693ms total)
T0E5C 000:768 JLINK_ReadMem (0xE0001000, 0x001C Bytes, ...) -- CPU_ReadMem(28 bytes @ 0xE0001000) - Data: 01 00 00 40 00 00 00 00 00 00 00 00 00 00 00 00 ...  returns 0x00 (0001ms, 0694ms total)
T0E5C 000:769 JLINK_Halt()  returns 0x00 (0000ms, 0694ms total)
T0E5C 000:769 JLINK_IsHalted()  returns TRUE (0000ms, 0694ms total)
T0E5C 000:771 JLINK_WriteMem(0x20000000, 0x0508 Bytes, ...) - Data: 00 BE 0A E0 0D 78 2D 06 68 40 08 24 40 00 00 D3 ... -- CPU_WriteMem(1288 bytes @ 0x20000000)  returns 0x508 (0015ms, 0709ms total)
T0E5C 000:786 JLINK_WriteReg(R0, 0x00000000)  returns 0x00 (0000ms, 0709ms total)
T0E5C 000:786 JLINK_WriteReg(R1, 0x00B71B00)  returns 0x00 (0000ms, 0709ms total)
T0E5C 000:786 JLINK_WriteReg(R2, 0x00000001)  returns 0x00 (0000ms, 0709ms total)
T0E5C 000:786 JLINK_WriteReg(R3, 0x00000000)  returns 0x00 (0000ms, 0709ms total)
T0E5C 000:786 JLINK_WriteReg(R4, 0x00000000)  returns 0x00 (0000ms, 0709ms total)
T0E5C 000:786 JLINK_WriteReg(R5, 0x00000000)  returns 0x00 (0000ms, 0709ms total)
T0E5C 000:786 JLINK_WriteReg(R6, 0x00000000)  returns 0x00 (0000ms, 0709ms total)
T0E5C 000:786 JLINK_WriteReg(R7, 0x00000000)  returns 0x00 (0000ms, 0709ms total)
T0E5C 000:786 JLINK_WriteReg(R8, 0x00000000)  returns 0x00 (0001ms, 0710ms total)
T0E5C 000:787 JLINK_WriteReg(R9, 0x20000500)  returns 0x00 (0000ms, 0710ms total)
T0E5C 000:787 JLINK_WriteReg(R10, 0x00000000)  returns 0x00 (0000ms, 0710ms total)
T0E5C 000:787 JLINK_WriteReg(R11, 0x00000000)  returns 0x00 (0000ms, 0710ms total)
T0E5C 000:787 JLINK_WriteReg(R12, 0x00000000)  returns 0x00 (0000ms, 0710ms total)
T0E5C 000:787 JLINK_WriteReg(R13 (SP), 0x20001000)  returns 0x00 (0000ms, 0710ms total)
T0E5C 000:787 JLINK_WriteReg(R14, 0x20000001)  returns 0x00 (0000ms, 0710ms total)
T0E5C 000:787 JLINK_WriteReg(R15 (PC), 0x20000020)  returns 0x00 (0000ms, 0710ms total)
T0E5C 000:787 JLINK_WriteReg(XPSR, 0x01000000)  returns 0x00 (0000ms, 0710ms total)
T0E5C 000:787 JLINK_WriteReg(MSP, 0x20001000)  returns 0x00 (0000ms, 0710ms total)
T0E5C 000:787 JLINK_WriteReg(PSP, 0x20001000)  returns 0x00 (0000ms, 0710ms total)
T0E5C 000:787 JLINK_WriteReg(CFBP, 0x00000000)  returns 0x00 (0000ms, 0710ms total)
T0E5C 000:787 JLINK_SetBPEx(Addr = 0x20000000, Type = 0xFFFFFFF2) -- CPU_ReadMem(4 bytes @ 0x20000000) -- CPU_WriteMem(4 bytes @ 0x20000000) -- CPU_ReadMem(4 bytes @ 0x20000000) -- CPU_WriteMem(4 bytes @ 0x20000000) -- CPU_ReadMem(2 bytes @ 0x20000000)  returns 0x00000001 (0007ms, 0717ms total)
T0E5C 000:794 JLINK_Go() -- CPU_WriteMem(2 bytes @ 0x20000000) -- CPU_ReadMem(4 bytes @ 0xE0001000) -- CPU_WriteMem(4 bytes @ 0xE0002008) -- CPU_WriteMem(4 bytes @ 0xE000200C) -- CPU_WriteMem(4 bytes @ 0xE0002010) -- CPU_WriteMem(4 bytes @ 0xE0002014) -- CPU_WriteMem(4 bytes @ 0xE0002018) -- CPU_WriteMem(4 bytes @ 0xE000201C) -- CPU_WriteMem(4 bytes @ 0xE0001004) (0012ms, 0729ms total)
T0E5C 000:806 JLINK_IsHalted() -- CPU_ReadMem(2 bytes @ 0x20000000)  returns TRUE (0005ms, 0734ms total)
T0E5C 000:811 JLINK_ReadReg(R15 (PC))  returns 0x20000000 (0000ms, 0729ms total)
T0E5C 000:811 JLINK_ClrBPEx(BPHandle = 0x00000001)  returns 0x00 (0000ms, 0729ms total)
T0E5C 000:811 JLINK_ReadReg(R0)  returns 0x00000000 (0000ms, 0729ms total)
T0E5C 000:811 JLINK_WriteReg(R0, 0x00000000)  returns 0x00 (0000ms, 0729ms total)
T0E5C 000:811 JLINK_WriteReg(R1, 0x00B71B00)  returns 0x00 (0000ms, 0729ms total)
T0E5C 000:811 JLINK_WriteReg(R2, 0x00000001)  returns 0x00 (0000ms, 0729ms total)
T0E5C 000:811 JLINK_WriteReg(R3, 0x00000000)  returns 0x00 (0000ms, 0729ms total)
T0E5C 000:811 JLINK_WriteReg(R4, 0x00000000)  returns 0x00 (0000ms, 0729ms total)
T0E5C 000:811 JLINK_WriteReg(R5, 0x00000000)  returns 0x00 (0000ms, 0729ms total)
T0E5C 000:811 JLINK_WriteReg(R6, 0x00000000)  returns 0x00 (0000ms, 0729ms total)
T0E5C 000:811 JLINK_WriteReg(R7, 0x00000000)  returns 0x00 (0000ms, 0729ms total)
T0E5C 000:811 JLINK_WriteReg(R8, 0x00000000)  returns 0x00 (0001ms, 0730ms total)
T0E5C 000:812 JLINK_WriteReg(R9, 0x20000500)  returns 0x00 (0000ms, 0730ms total)
T0E5C 000:812 JLINK_WriteReg(R10, 0x00000000)  returns 0x00 (0000ms, 0730ms total)
T0E5C 000:812 JLINK_WriteReg(R11, 0x00000000)  returns 0x00 (0000ms, 0730ms total)
T0E5C 000:812 JLINK_WriteReg(R12, 0x00000000)  returns 0x00 (0000ms, 0730ms total)
T0E5C 000:812 JLINK_WriteReg(R13 (SP), 0x20001000)  returns 0x00 (0000ms, 0730ms total)
T0E5C 000:812 JLINK_WriteReg(R14, 0x20000001)  returns 0x00 (0000ms, 0730ms total)
T0E5C 000:812 JLINK_WriteReg(R15 (PC), 0x20000098)  returns 0x00 (0000ms, 0730ms total)
T0E5C 000:812 JLINK_WriteReg(XPSR, 0x01000000)  returns 0x00 (0000ms, 0730ms total)
T0E5C 000:812 JLINK_WriteReg(MSP, 0x20001000)  returns 0x00 (0000ms, 0730ms total)
T0E5C 000:812 JLINK_WriteReg(PSP, 0x20001000)  returns 0x00 (0000ms, 0730ms total)
T0E5C 000:812 JLINK_WriteReg(CFBP, 0x00000000)  returns 0x00 (0000ms, 0730ms total)
T0E5C 000:812 JLINK_SetBPEx(Addr = 0x20000000, Type = 0xFFFFFFF2)  returns 0x00000002 (0000ms, 0730ms total)
T0E5C 000:812 JLINK_Go() -- CPU_ReadMem(4 bytes @ 0xE0001000) (0004ms, 0734ms total)
T0E5C 000:816 JLINK_IsHalted()  returns FALSE (0001ms, 0735ms total)
T0E5C 000:871 JLINK_IsHalted()  returns FALSE (0001ms, 0735ms total)
T0E5C 000:888 JLINK_IsHalted()  returns FALSE (0001ms, 0735ms total)
T0E5C 000:890 JLINK_IsHalted()  returns FALSE (0001ms, 0735ms total)
T0E5C 000:892 JLINK_IsHalted() -- CPU_ReadMem(2 bytes @ 0x20000000)  returns TRUE (0004ms, 0738ms total)
T0E5C 000:896 JLINK_ReadReg(R15 (PC))  returns 0x20000000 (0000ms, 0734ms total)
T0E5C 000:896 JLINK_ClrBPEx(BPHandle = 0x00000002)  returns 0x00 (0000ms, 0734ms total)
T0E5C 000:896 JLINK_ReadReg(R0)  returns 0x00000000 (0000ms, 0734ms total)
T0E5C 000:947 JLINK_WriteReg(R0, 0x00000001)  returns 0x00 (0000ms, 0734ms total)
T0E5C 000:947 JLINK_WriteReg(R1, 0x00B71B00)  returns 0x00 (0000ms, 0734ms total)
T0E5C 000:947 JLINK_WriteReg(R2, 0x00000001)  returns 0x00 (0000ms, 0734ms total)
T0E5C 000:947 JLINK_WriteReg(R3, 0x00000000)  returns 0x00 (0000ms, 0734ms total)
T0E5C 000:947 JLINK_WriteReg(R4, 0x00000000)  returns 0x00 (0000ms, 0734ms total)
T0E5C 000:947 JLINK_WriteReg(R5, 0x00000000)  returns 0x00 (0000ms, 0734ms total)
T0E5C 000:947 JLINK_WriteReg(R6, 0x00000000)  returns 0x00 (0000ms, 0734ms total)
T0E5C 000:947 JLINK_WriteReg(R7, 0x00000000)  returns 0x00 (0000ms, 0734ms total)
T0E5C 000:947 JLINK_WriteReg(R8, 0x00000000)  returns 0x00 (0000ms, 0734ms total)
T0E5C 000:947 JLINK_WriteReg(R9, 0x20000500)  returns 0x00 (0000ms, 0734ms total)
T0E5C 000:947 JLINK_WriteReg(R10, 0x00000000)  returns 0x00 (0000ms, 0734ms total)
T0E5C 000:947 JLINK_WriteReg(R11, 0x00000000)  returns 0x00 (0000ms, 0734ms total)
T0E5C 000:947 JLINK_WriteReg(R12, 0x00000000)  returns 0x00 (0000ms, 0734ms total)
T0E5C 000:947 JLINK_WriteReg(R13 (SP), 0x20001000)  returns 0x00 (0000ms, 0734ms total)
T0E5C 000:947 JLINK_WriteReg(R14, 0x20000001)  returns 0x00 (0000ms, 0734ms total)
T0E5C 000:947 JLINK_WriteReg(R15 (PC), 0x20000074)  returns 0x00 (0000ms, 0734ms total)
T0E5C 000:947 JLINK_WriteReg(XPSR, 0x01000000)  returns 0x00 (0000ms, 0734ms total)
T0E5C 000:947 JLINK_WriteReg(MSP, 0x20001000)  returns 0x00 (0000ms, 0734ms total)
T0E5C 000:947 JLINK_WriteReg(PSP, 0x20001000)  returns 0x00 (0000ms, 0734ms total)
T0E5C 000:947 JLINK_WriteReg(CFBP, 0x00000000)  returns 0x00 (0000ms, 0734ms total)
T0E5C 000:947 JLINK_SetBPEx(Addr = 0x20000000, Type = 0xFFFFFFF2)  returns 0x00000003 (0000ms, 0734ms total)
T0E5C 000:947 JLINK_Go() -- CPU_ReadMem(4 bytes @ 0xE0001000) (0004ms, 0738ms total)
T0E5C 000:951 JLINK_IsHalted() -- CPU_ReadMem(2 bytes @ 0x20000000)  returns TRUE (0005ms, 0743ms total)
T0E5C 000:956 JLINK_ReadReg(R15 (PC))  returns 0x20000000 (0000ms, 0738ms total)
T0E5C 000:956 JLINK_ClrBPEx(BPHandle = 0x00000003)  returns 0x00 (0000ms, 0738ms total)
T0E5C 000:956 JLINK_ReadReg(R0)  returns 0x00000000 (0000ms, 0738ms total)
T0E5C 000:960 JLINK_WriteMem(0x20000000, 0x0508 Bytes, ...) - Data: 00 BE 0A E0 0D 78 2D 06 68 40 08 24 40 00 00 D3 ... -- CPU_WriteMem(1288 bytes @ 0x20000000)  returns 0x508 (0015ms, 0753ms total)
T0E5C 000:975 JLINK_WriteReg(R0, 0x00000000)  returns 0x00 (0000ms, 0753ms total)
T0E5C 000:975 JLINK_WriteReg(R1, 0x00B71B00)  returns 0x00 (0001ms, 0754ms total)
T0E5C 000:976 JLINK_WriteReg(R2, 0x00000002)  returns 0x00 (0000ms, 0754ms total)
T0E5C 000:976 JLINK_WriteReg(R3, 0x00000000)  returns 0x00 (0000ms, 0754ms total)
T0E5C 000:976 JLINK_WriteReg(R4, 0x00000000)  returns 0x00 (0000ms, 0754ms total)
T0E5C 000:976 JLINK_WriteReg(R5, 0x00000000)  returns 0x00 (0000ms, 0754ms total)
T0E5C 000:976 JLINK_WriteReg(R6, 0x00000000)  returns 0x00 (0000ms, 0754ms total)
T0E5C 000:976 JLINK_WriteReg(R7, 0x00000000)  returns 0x00 (0000ms, 0754ms total)
T0E5C 000:976 JLINK_WriteReg(R8, 0x00000000)  returns 0x00 (0000ms, 0754ms total)
T0E5C 000:976 JLINK_WriteReg(R9, 0x20000500)  returns 0x00 (0000ms, 0754ms total)
T0E5C 000:976 JLINK_WriteReg(R10, 0x00000000)  returns 0x00 (0000ms, 0754ms total)
T0E5C 000:976 JLINK_WriteReg(R11, 0x00000000)  returns 0x00 (0000ms, 0754ms total)
T0E5C 000:976 JLINK_WriteReg(R12, 0x00000000)  returns 0x00 (0000ms, 0754ms total)
T0E5C 000:976 JLINK_WriteReg(R13 (SP), 0x20001000)  returns 0x00 (0000ms, 0754ms total)
T0E5C 000:976 JLINK_WriteReg(R14, 0x20000001)  returns 0x00 (0000ms, 0754ms total)
T0E5C 000:976 JLINK_WriteReg(R15 (PC), 0x20000020)  returns 0x00 (0000ms, 0754ms total)
T0E5C 000:976 JLINK_WriteReg(XPSR, 0x01000000)  returns 0x00 (0000ms, 0754ms total)
T0E5C 000:976 JLINK_WriteReg(MSP, 0x20001000)  returns 0x00 (0000ms, 0754ms total)
T0E5C 000:976 JLINK_WriteReg(PSP, 0x20001000)  returns 0x00 (0000ms, 0754ms total)
T0E5C 000:976 JLINK_WriteReg(CFBP, 0x00000000)  returns 0x00 (0000ms, 0754ms total)
T0E5C 000:976 JLINK_SetBPEx(Addr = 0x20000000, Type = 0xFFFFFFF2) -- CPU_ReadMem(4 bytes @ 0x20000000) -- CPU_WriteMem(4 bytes @ 0x20000000) -- CPU_ReadMem(4 bytes @ 0x20000000) -- CPU_WriteMem(4 bytes @ 0x20000000) -- CPU_ReadMem(2 bytes @ 0x20000000)  returns 0x00000004 (0007ms, 0761ms total)
T0E5C 000:983 JLINK_Go() -- CPU_WriteMem(2 bytes @ 0x20000000) -- CPU_ReadMem(4 bytes @ 0xE0001000) (0006ms, 0767ms total)
T0E5C 000:989 JLINK_IsHalted() -- CPU_ReadMem(2 bytes @ 0x20000000)  returns TRUE (0006ms, 0773ms total)
T0E5C 000:995 JLINK_ReadReg(R15 (PC))  returns 0x20000000 (0000ms, 0767ms total)
T0E5C 000:995 JLINK_ClrBPEx(BPHandle = 0x00000004)  returns 0x00 (0000ms, 0767ms total)
T0E5C 000:995 JLINK_ReadReg(R0)  returns 0x00000000 (0000ms, 0767ms total)
T0E5C 000:995 JLINK_WriteMem(0x20000530, 0x0200 Bytes, ...) - Data: 00 C0 00 20 CD 04 00 00 15 59 00 00 0D 59 00 00 ... -- CPU_WriteMem(512 bytes @ 0x20000530)  returns 0x200 (0008ms, 0775ms total)
T0E5C 001:003 JLINK_WriteReg(R0, 0x00000000)  returns 0x00 (0001ms, 0776ms total)
T0E5C 001:004 JLINK_WriteReg(R1, 0x00000200)  returns 0x00 (0000ms, 0776ms total)
T0E5C 001:004 JLINK_WriteReg(R2, 0x20000530)  returns 0x00 (0000ms, 0776ms total)
T0E5C 001:004 JLINK_WriteReg(R3, 0x00000000)  returns 0x00 (0000ms, 0776ms total)
T0E5C 001:004 JLINK_WriteReg(R4, 0x00000000)  returns 0x00 (0000ms, 0776ms total)
T0E5C 001:004 JLINK_WriteReg(R5, 0x00000000)  returns 0x00 (0000ms, 0776ms total)
T0E5C 001:004 JLINK_WriteReg(R6, 0x00000000)  returns 0x00 (0000ms, 0776ms total)
T0E5C 001:004 JLINK_WriteReg(R7, 0x00000000)  returns 0x00 (0000ms, 0776ms total)
T0E5C 001:004 JLINK_WriteReg(R8, 0x00000000)  returns 0x00 (0000ms, 0776ms total)
T0E5C 001:004 JLINK_WriteReg(R9, 0x20000500)  returns 0x00 (0000ms, 0776ms total)
T0E5C 001:004 JLINK_WriteReg(R10, 0x00000000)  returns 0x00 (0000ms, 0776ms total)
T0E5C 001:004 JLINK_WriteReg(R11, 0x00000000)  returns 0x00 (0000ms, 0776ms total)
T0E5C 001:004 JLINK_WriteReg(R12, 0x00000000)  returns 0x00 (0000ms, 0776ms total)
T0E5C 001:004 JLINK_WriteReg(R13 (SP), 0x20001000)  returns 0x00 (0000ms, 0776ms total)
T0E5C 001:004 JLINK_WriteReg(R14, 0x20000001)  returns 0x00 (0000ms, 0776ms total)
T0E5C 001:004 JLINK_WriteReg(R15 (PC), 0x200000E2)  returns 0x00 (0000ms, 0776ms total)
T0E5C 001:004 JLINK_WriteReg(XPSR, 0x01000000)  returns 0x00 (0000ms, 0776ms total)
T0E5C 001:004 JLINK_WriteReg(MSP, 0x20001000)  returns 0x00 (0000ms, 0776ms total)
T0E5C 001:004 JLINK_WriteReg(PSP, 0x20001000)  returns 0x00 (0000ms, 0776ms total)
T0E5C 001:004 JLINK_WriteReg(CFBP, 0x00000000)  returns 0x00 (0000ms, 0776ms total)
T0E5C 001:004 JLINK_SetBPEx(Addr = 0x20000000, Type = 0xFFFFFFF2)  returns 0x00000005 (0000ms, 0776ms total)
T0E5C 001:004 JLINK_Go() -- CPU_ReadMem(4 bytes @ 0xE0001000) (0004ms, 0780ms total)
T0E5C 001:008 JLINK_IsHalted()  returns FALSE (0001ms, 0781ms total)
T0E5C 001:043 JLINK_IsHalted() -- CPU_ReadMem(2 bytes @ 0x20000000)  returns TRUE (0004ms, 0784ms total)
T0E5C 001:047 JLINK_ReadReg(R15 (PC))  returns 0x20000000 (0000ms, 0780ms total)
T0E5C 001:047 JLINK_ClrBPEx(BPHandle = 0x00000005)  returns 0x00 (0000ms, 0780ms total)
T0E5C 001:047 JLINK_ReadReg(R0)  returns 0x00000000 (0000ms, 0780ms total)
T0E5C 001:048 JLINK_WriteMem(0x20000530, 0x0200 Bytes, ...) - Data: A5 05 00 00 A5 05 00 00 A5 05 00 00 A5 05 00 00 ... -- CPU_WriteMem(512 bytes @ 0x20000530)  returns 0x200 (0006ms, 0786ms total)
T0E5C 001:054 JLINK_WriteReg(R0, 0x00000200)  returns 0x00 (0000ms, 0786ms total)
T0E5C 001:054 JLINK_WriteReg(R1, 0x00000200)  returns 0x00 (0000ms, 0786ms total)
T0E5C 001:054 JLINK_WriteReg(R2, 0x20000530)  returns 0x00 (0000ms, 0786ms total)
T0E5C 001:054 JLINK_WriteReg(R3, 0x00000000)  returns 0x00 (0000ms, 0786ms total)
T0E5C 001:054 JLINK_WriteReg(R4, 0x00000000)  returns 0x00 (0000ms, 0786ms total)
T0E5C 001:054 JLINK_WriteReg(R5, 0x00000000)  returns 0x00 (0000ms, 0786ms total)
T0E5C 001:054 JLINK_WriteReg(R6, 0x00000000)  returns 0x00 (0000ms, 0786ms total)
T0E5C 001:054 JLINK_WriteReg(R7, 0x00000000)  returns 0x00 (0000ms, 0786ms total)
T0E5C 001:054 JLINK_WriteReg(R8, 0x00000000)  returns 0x00 (0000ms, 0786ms total)
T0E5C 001:054 JLINK_WriteReg(R9, 0x20000500)  returns 0x00 (0000ms, 0786ms total)
T0E5C 001:054 JLINK_WriteReg(R10, 0x00000000)  returns 0x00 (0000ms, 0786ms total)
T0E5C 001:054 JLINK_WriteReg(R11, 0x00000000)  returns 0x00 (0000ms, 0786ms total)
T0E5C 001:054 JLINK_WriteReg(R12, 0x00000000)  returns 0x00 (0000ms, 0786ms total)
T0E5C 001:054 JLINK_WriteReg(R13 (SP), 0x20001000)  returns 0x00 (0000ms, 0786ms total)
T0E5C 001:054 JLINK_WriteReg(R14, 0x20000001)  returns 0x00 (0000ms, 0786ms total)
T0E5C 001:054 JLINK_WriteReg(R15 (PC), 0x200000E2)  returns 0x00 (0000ms, 0786ms total)
T0E5C 001:054 JLINK_WriteReg(XPSR, 0x01000000)  returns 0x00 (0000ms, 0786ms total)
T0E5C 001:054 JLINK_WriteReg(MSP, 0x20001000)  returns 0x00 (0000ms, 0786ms total)
T0E5C 001:054 JLINK_WriteReg(PSP, 0x20001000)  returns 0x00 (0000ms, 0786ms total)
T0E5C 001:054 JLINK_WriteReg(CFBP, 0x00000000)  returns 0x00 (0000ms, 0786ms total)
T0E5C 001:054 JLINK_SetBPEx(Addr = 0x20000000, Type = 0xFFFFFFF2)  returns 0x00000006 (0001ms, 0787ms total)
T0E5C 001:055 JLINK_Go() -- CPU_ReadMem(4 bytes @ 0xE0001000) (0003ms, 0790ms total)
T0E5C 001:058 JLINK_IsHalted()  returns FALSE (0001ms, 0791ms total)
T0E5C 001:061 JLINK_IsHalted()  returns FALSE (0001ms, 0791ms total)
T0E5C 001:063 JLINK_IsHalted()  returns FALSE (0001ms, 0791ms total)
T0E5C 001:065 JLINK_IsHalted()  returns FALSE (0001ms, 0791ms total)
T0E5C 001:067 JLINK_IsHalted()  returns FALSE (0001ms, 0791ms total)
T0E5C 001:103 JLINK_IsHalted() -- CPU_ReadMem(2 bytes @ 0x20000000)  returns TRUE (0005ms, 0795ms total)
T0E5C 001:108 JLINK_ReadReg(R15 (PC))  returns 0x20000000 (0000ms, 0790ms total)
T0E5C 001:108 JLINK_ClrBPEx(BPHandle = 0x00000006)  returns 0x00 (0000ms, 0790ms total)
T0E5C 001:108 JLINK_ReadReg(R0)  returns 0x00000000 (0000ms, 0790ms total)
T0E5C 001:108 JLINK_WriteMem(0x20000530, 0x0200 Bytes, ...) - Data: FF FF FF FF FF FF FF FF FF FF FF FF FE FF FF FF ... -- CPU_WriteMem(512 bytes @ 0x20000530)  returns 0x200 (0008ms, 0798ms total)
T0E5C 001:116 JLINK_WriteReg(R0, 0x00000400)  returns 0x00 (0000ms, 0798ms total)
T0E5C 001:116 JLINK_WriteReg(R1, 0x00000200)  returns 0x00 (0000ms, 0798ms total)
T0E5C 001:116 JLINK_WriteReg(R2, 0x20000530)  returns 0x00 (0000ms, 0798ms total)
T0E5C 001:116 JLINK_WriteReg(R3, 0x00000000)  returns 0x00 (0000ms, 0798ms total)
T0E5C 001:116 JLINK_WriteReg(R4, 0x00000000)  returns 0x00 (0000ms, 0798ms total)
T0E5C 001:116 JLINK_WriteReg(R5, 0x00000000)  returns 0x00 (0000ms, 0798ms total)
T0E5C 001:116 JLINK_WriteReg(R6, 0x00000000)  returns 0x00 (0000ms, 0798ms total)
T0E5C 001:116 JLINK_WriteReg(R7, 0x00000000)  returns 0x00 (0000ms, 0798ms total)
T0E5C 001:116 JLINK_WriteReg(R8, 0x00000000)  returns 0x00 (0000ms, 0798ms total)
T0E5C 001:116 JLINK_WriteReg(R9, 0x20000500)  returns 0x00 (0000ms, 0798ms total)
T0E5C 001:116 JLINK_WriteReg(R10, 0x00000000)  returns 0x00 (0000ms, 0798ms total)
T0E5C 001:116 JLINK_WriteReg(R11, 0x00000000)  returns 0x00 (0000ms, 0798ms total)
T0E5C 001:116 JLINK_WriteReg(R12, 0x00000000)  returns 0x00 (0000ms, 0798ms total)
T0E5C 001:116 JLINK_WriteReg(R13 (SP), 0x20001000)  returns 0x00 (0000ms, 0798ms total)
T0E5C 001:116 JLINK_WriteReg(R14, 0x20000001)  returns 0x00 (0000ms, 0798ms total)
T0E5C 001:116 JLINK_WriteReg(R15 (PC), 0x200000E2)  returns 0x00 (0000ms, 0798ms total)
T0E5C 001:116 JLINK_WriteReg(XPSR, 0x01000000)  returns 0x00 (0000ms, 0798ms total)
T0E5C 001:116 JLINK_WriteReg(MSP, 0x20001000)  returns 0x00 (0000ms, 0798ms total)
T0E5C 001:116 JLINK_WriteReg(PSP, 0x20001000)  returns 0x00 (0000ms, 0798ms total)
T0E5C 001:116 JLINK_WriteReg(CFBP, 0x00000000)  returns 0x00 (0000ms, 0798ms total)
T0E5C 001:116 JLINK_SetBPEx(Addr = 0x20000000, Type = 0xFFFFFFF2)  returns 0x00000007 (0000ms, 0798ms total)
T0E5C 001:116 JLINK_Go() -- CPU_ReadMem(4 bytes @ 0xE0001000) (0006ms, 0804ms total)
T0E5C 001:122 JLINK_IsHalted()  returns FALSE (0001ms, 0805ms total)
T0E5C 001:125 JLINK_IsHalted()  returns FALSE (0002ms, 0806ms total)
T0E5C 001:128 JLINK_IsHalted()  returns FALSE (0001ms, 0805ms total)
T0E5C 001:130 JLINK_IsHalted()  returns FALSE (0001ms, 0805ms total)
T0E5C 001:133 JLINK_IsHalted()  returns FALSE (0001ms, 0805ms total)
T0E5C 001:135 JLINK_IsHalted() -- CPU_ReadMem(2 bytes @ 0x20000000)  returns TRUE (0005ms, 0809ms total)
T0E5C 001:140 JLINK_ReadReg(R15 (PC))  returns 0x20000000 (0000ms, 0804ms total)
T0E5C 001:140 JLINK_ClrBPEx(BPHandle = 0x00000007)  returns 0x00 (0000ms, 0804ms total)
T0E5C 001:140 JLINK_ReadReg(R0)  returns 0x00000000 (0000ms, 0804ms total)
T0E5C 001:140 JLINK_WriteMem(0x20000530, 0x0200 Bytes, ...) - Data: A5 05 00 00 A5 05 00 00 A5 05 00 00 A5 05 00 00 ... -- CPU_WriteMem(512 bytes @ 0x20000530)  returns 0x200 (0006ms, 0810ms total)
T0E5C 001:146 JLINK_WriteReg(R0, 0x00000600)  returns 0x00 (0000ms, 0810ms total)
T0E5C 001:146 JLINK_WriteReg(R1, 0x00000200)  returns 0x00 (0000ms, 0810ms total)
T0E5C 001:146 JLINK_WriteReg(R2, 0x20000530)  returns 0x00 (0000ms, 0810ms total)
T0E5C 001:146 JLINK_WriteReg(R3, 0x00000000)  returns 0x00 (0000ms, 0810ms total)
T0E5C 001:146 JLINK_WriteReg(R4, 0x00000000)  returns 0x00 (0000ms, 0810ms total)
T0E5C 001:147 JLINK_WriteReg(R5, 0x00000000)  returns 0x00 (0000ms, 0810ms total)
T0E5C 001:147 JLINK_WriteReg(R6, 0x00000000)  returns 0x00 (0000ms, 0810ms total)
T0E5C 001:147 JLINK_WriteReg(R7, 0x00000000)  returns 0x00 (0000ms, 0810ms total)
T0E5C 001:147 JLINK_WriteReg(R8, 0x00000000)  returns 0x00 (0000ms, 0810ms total)
T0E5C 001:147 JLINK_WriteReg(R9, 0x20000500)  returns 0x00 (0000ms, 0810ms total)
T0E5C 001:147 JLINK_WriteReg(R10, 0x00000000)  returns 0x00 (0000ms, 0810ms total)
T0E5C 001:147 JLINK_WriteReg(R11, 0x00000000)  returns 0x00 (0000ms, 0810ms total)
T0E5C 001:147 JLINK_WriteReg(R12, 0x00000000)  returns 0x00 (0000ms, 0810ms total)
T0E5C 001:147 JLINK_WriteReg(R13 (SP), 0x20001000)  returns 0x00 (0000ms, 0810ms total)
T0E5C 001:147 JLINK_WriteReg(R14, 0x20000001)  returns 0x00 (0000ms, 0810ms total)
T0E5C 001:147 JLINK_WriteReg(R15 (PC), 0x200000E2)  returns 0x00 (0000ms, 0810ms total)
T0E5C 001:147 JLINK_WriteReg(XPSR, 0x01000000)  returns 0x00 (0000ms, 0810ms total)
T0E5C 001:147 JLINK_WriteReg(MSP, 0x20001000)  returns 0x00 (0000ms, 0810ms total)
T0E5C 001:147 JLINK_WriteReg(PSP, 0x20001000)  returns 0x00 (0000ms, 0810ms total)
T0E5C 001:147 JLINK_WriteReg(CFBP, 0x00000000)  returns 0x00 (0000ms, 0810ms total)
T0E5C 001:147 JLINK_SetBPEx(Addr = 0x20000000, Type = 0xFFFFFFF2)  returns 0x00000008 (0000ms, 0810ms total)
T0E5C 001:147 JLINK_Go() -- CPU_ReadMem(4 bytes @ 0xE0001000) (0003ms, 0813ms total)
T0E5C 001:150 JLINK_IsHalted()  returns FALSE (0001ms, 0814ms total)
T0E5C 001:153 JLINK_IsHalted()  returns FALSE (0001ms, 0814ms total)
T0E5C 001:155 JLINK_IsHalted()  returns FALSE (0001ms, 0814ms total)
T0E5C 001:157 JLINK_IsHalted()  returns FALSE (0001ms, 0814ms total)
T0E5C 001:159 JLINK_IsHalted()  returns FALSE (0001ms, 0814ms total)
T0E5C 001:161 JLINK_IsHalted()  returns FALSE (0001ms, 0814ms total)
T0E5C 001:163 JLINK_IsHalted() -- CPU_ReadMem(2 bytes @ 0x20000000)  returns TRUE (0005ms, 0818ms total)
T0E5C 001:168 JLINK_ReadReg(R15 (PC))  returns 0x20000000 (0000ms, 0813ms total)
T0E5C 001:168 JLINK_ClrBPEx(BPHandle = 0x00000008)  returns 0x00 (0000ms, 0813ms total)
T0E5C 001:168 JLINK_ReadReg(R0)  returns 0x00000000 (0000ms, 0813ms total)
T0E5C 001:169 JLINK_WriteMem(0x20000530, 0x0200 Bytes, ...) - Data: BD E8 1C 40 70 47 00 00 0F B4 1C B5 07 4B 06 AA ... -- CPU_WriteMem(512 bytes @ 0x20000530)  returns 0x200 (0006ms, 0819ms total)
T0E5C 001:175 JLINK_WriteReg(R0, 0x00000800)  returns 0x00 (0000ms, 0819ms total)
T0E5C 001:175 JLINK_WriteReg(R1, 0x00000200)  returns 0x00 (0000ms, 0819ms total)
T0E5C 001:175 JLINK_WriteReg(R2, 0x20000530)  returns 0x00 (0000ms, 0819ms total)
T0E5C 001:175 JLINK_WriteReg(R3, 0x00000000)  returns 0x00 (0000ms, 0819ms total)
T0E5C 001:175 JLINK_WriteReg(R4, 0x00000000)  returns 0x00 (0000ms, 0819ms total)
T0E5C 001:175 JLINK_WriteReg(R5, 0x00000000)  returns 0x00 (0001ms, 0820ms total)
T0E5C 001:176 JLINK_WriteReg(R6, 0x00000000)  returns 0x00 (0000ms, 0820ms total)
T0E5C 001:176 JLINK_WriteReg(R7, 0x00000000)  returns 0x00 (0000ms, 0820ms total)
T0E5C 001:176 JLINK_WriteReg(R8, 0x00000000)  returns 0x00 (0000ms, 0820ms total)
T0E5C 001:176 JLINK_WriteReg(R9, 0x20000500)  returns 0x00 (0000ms, 0820ms total)
T0E5C 001:176 JLINK_WriteReg(R10, 0x00000000)  returns 0x00 (0000ms, 0820ms total)
T0E5C 001:176 JLINK_WriteReg(R11, 0x00000000)  returns 0x00 (0000ms, 0820ms total)
T0E5C 001:176 JLINK_WriteReg(R12, 0x00000000)  returns 0x00 (0000ms, 0820ms total)
T0E5C 001:176 JLINK_WriteReg(R13 (SP), 0x20001000)  returns 0x00 (0000ms, 0820ms total)
T0E5C 001:176 JLINK_WriteReg(R14, 0x20000001)  returns 0x00 (0000ms, 0820ms total)
T0E5C 001:176 JLINK_WriteReg(R15 (PC), 0x200000E2)  returns 0x00 (0000ms, 0820ms total)
T0E5C 001:176 JLINK_WriteReg(XPSR, 0x01000000)  returns 0x00 (0000ms, 0820ms total)
T0E5C 001:176 JLINK_WriteReg(MSP, 0x20001000)  returns 0x00 (0000ms, 0820ms total)
T0E5C 001:176 JLINK_WriteReg(PSP, 0x20001000)  returns 0x00 (0000ms, 0820ms total)
T0E5C 001:176 JLINK_WriteReg(CFBP, 0x00000000)  returns 0x00 (0000ms, 0820ms total)
T0E5C 001:176 JLINK_SetBPEx(Addr = 0x20000000, Type = 0xFFFFFFF2)  returns 0x00000009 (0000ms, 0820ms total)
T0E5C 001:176 JLINK_Go() -- CPU_ReadMem(4 bytes @ 0xE0001000) (0004ms, 0824ms total)
T0E5C 001:180 JLINK_IsHalted()  returns FALSE (0001ms, 0825ms total)
T0E5C 001:215 JLINK_IsHalted() -- CPU_ReadMem(2 bytes @ 0x20000000)  returns TRUE (0004ms, 0828ms total)
T0E5C 001:219 JLINK_ReadReg(R15 (PC))  returns 0x20000000 (0000ms, 0824ms total)
T0E5C 001:219 JLINK_ClrBPEx(BPHandle = 0x00000009)  returns 0x00 (0000ms, 0824ms total)
T0E5C 001:219 JLINK_ReadReg(R0)  returns 0x00000000 (0000ms, 0824ms total)
T0E5C 001:220 JLINK_WriteMem(0x20000530, 0x0200 Bytes, ...) - Data: 10 F0 03 0C 00 F0 1B 80 CC F1 04 0C BC F1 02 0F ... -- CPU_WriteMem(512 bytes @ 0x20000530)  returns 0x200 (0006ms, 0830ms total)
T0E5C 001:226 JLINK_WriteReg(R0, 0x00000A00)  returns 0x00 (0000ms, 0830ms total)
T0E5C 001:226 JLINK_WriteReg(R1, 0x00000200)  returns 0x00 (0000ms, 0830ms total)
T0E5C 001:226 JLINK_WriteReg(R2, 0x20000530)  returns 0x00 (0000ms, 0830ms total)
T0E5C 001:226 JLINK_WriteReg(R3, 0x00000000)  returns 0x00 (0000ms, 0830ms total)
T0E5C 001:226 JLINK_WriteReg(R4, 0x00000000)  returns 0x00 (0000ms, 0830ms total)
T0E5C 001:226 JLINK_WriteReg(R5, 0x00000000)  returns 0x00 (0000ms, 0830ms total)
T0E5C 001:226 JLINK_WriteReg(R6, 0x00000000)  returns 0x00 (0000ms, 0830ms total)
T0E5C 001:226 JLINK_WriteReg(R7, 0x00000000)  returns 0x00 (0000ms, 0830ms total)
T0E5C 001:226 JLINK_WriteReg(R8, 0x00000000)  returns 0x00 (0000ms, 0830ms total)
T0E5C 001:226 JLINK_WriteReg(R9, 0x20000500)  returns 0x00 (0000ms, 0830ms total)
T0E5C 001:226 JLINK_WriteReg(R10, 0x00000000)  returns 0x00 (0000ms, 0830ms total)
T0E5C 001:226 JLINK_WriteReg(R11, 0x00000000)  returns 0x00 (0001ms, 0831ms total)
T0E5C 001:227 JLINK_WriteReg(R12, 0x00000000)  returns 0x00 (0000ms, 0831ms total)
T0E5C 001:227 JLINK_WriteReg(R13 (SP), 0x20001000)  returns 0x00 (0000ms, 0831ms total)
T0E5C 001:227 JLINK_WriteReg(R14, 0x20000001)  returns 0x00 (0000ms, 0831ms total)
T0E5C 001:227 JLINK_WriteReg(R15 (PC), 0x200000E2)  returns 0x00 (0000ms, 0831ms total)
T0E5C 001:227 JLINK_WriteReg(XPSR, 0x01000000)  returns 0x00 (0000ms, 0831ms total)
T0E5C 001:227 JLINK_WriteReg(MSP, 0x20001000)  returns 0x00 (0000ms, 0831ms total)
T0E5C 001:227 JLINK_WriteReg(PSP, 0x20001000)  returns 0x00 (0000ms, 0831ms total)
T0E5C 001:227 JLINK_WriteReg(CFBP, 0x00000000)  returns 0x00 (0000ms, 0831ms total)
T0E5C 001:227 JLINK_SetBPEx(Addr = 0x20000000, Type = 0xFFFFFFF2)  returns 0x0000000A (0000ms, 0831ms total)
T0E5C 001:227 JLINK_Go() -- CPU_ReadMem(4 bytes @ 0xE0001000) (0004ms, 0835ms total)
T0E5C 001:231 JLINK_IsHalted()  returns FALSE (0002ms, 0837ms total)
T0E5C 001:234 JLINK_IsHalted()  returns FALSE (0000ms, 0835ms total)
T0E5C 001:236 JLINK_IsHalted()  returns FALSE (0001ms, 0836ms total)
T0E5C 001:238 JLINK_IsHalted()  returns FALSE (0001ms, 0836ms total)
T0E5C 001:243 JLINK_IsHalted()  returns FALSE (0001ms, 0836ms total)
T0E5C 001:245 JLINK_IsHalted() -- CPU_ReadMem(2 bytes @ 0x20000000)  returns TRUE (0004ms, 0839ms total)
T0E5C 001:249 JLINK_ReadReg(R15 (PC))  returns 0x20000000 (0000ms, 0835ms total)
T0E5C 001:249 JLINK_ClrBPEx(BPHandle = 0x0000000A)  returns 0x00 (0000ms, 0835ms total)
T0E5C 001:249 JLINK_ReadReg(R0)  returns 0x00000000 (0000ms, 0835ms total)
T0E5C 001:250 JLINK_WriteMem(0x20000530, 0x0200 Bytes, ...) - Data: 08 BF 70 47 D2 07 28 BF 31 F8 02 3B 48 BF 11 F8 ... -- CPU_WriteMem(512 bytes @ 0x20000530)  returns 0x200 (0006ms, 0841ms total)
T0E5C 001:256 JLINK_WriteReg(R0, 0x00000C00)  returns 0x00 (0000ms, 0841ms total)
T0E5C 001:256 JLINK_WriteReg(R1, 0x00000200)  returns 0x00 (0000ms, 0841ms total)
T0E5C 001:256 JLINK_WriteReg(R2, 0x20000530)  returns 0x00 (0000ms, 0841ms total)
T0E5C 001:256 JLINK_WriteReg(R3, 0x00000000)  returns 0x00 (0000ms, 0841ms total)
T0E5C 001:256 JLINK_WriteReg(R4, 0x00000000)  returns 0x00 (0000ms, 0841ms total)
T0E5C 001:256 JLINK_WriteReg(R5, 0x00000000)  returns 0x00 (0000ms, 0841ms total)
T0E5C 001:256 JLINK_WriteReg(R6, 0x00000000)  returns 0x00 (0000ms, 0841ms total)
T0E5C 001:256 JLINK_WriteReg(R7, 0x00000000)  returns 0x00 (0000ms, 0841ms total)
T0E5C 001:256 JLINK_WriteReg(R8, 0x00000000)  returns 0x00 (0000ms, 0841ms total)
T0E5C 001:256 JLINK_WriteReg(R9, 0x20000500)  returns 0x00 (0000ms, 0841ms total)
T0E5C 001:256 JLINK_WriteReg(R10, 0x00000000)  returns 0x00 (0000ms, 0841ms total)
T0E5C 001:256 JLINK_WriteReg(R11, 0x00000000)  returns 0x00 (0000ms, 0841ms total)
T0E5C 001:256 JLINK_WriteReg(R12, 0x00000000)  returns 0x00 (0000ms, 0841ms total)
T0E5C 001:256 JLINK_WriteReg(R13 (SP), 0x20001000)  returns 0x00 (0000ms, 0841ms total)
T0E5C 001:256 JLINK_WriteReg(R14, 0x20000001)  returns 0x00 (0000ms, 0841ms total)
T0E5C 001:256 JLINK_WriteReg(R15 (PC), 0x200000E2)  returns 0x00 (0000ms, 0841ms total)
T0E5C 001:256 JLINK_WriteReg(XPSR, 0x01000000)  returns 0x00 (0000ms, 0841ms total)
T0E5C 001:256 JLINK_WriteReg(MSP, 0x20001000)  returns 0x00 (0000ms, 0841ms total)
T0E5C 001:256 JLINK_WriteReg(PSP, 0x20001000)  returns 0x00 (0000ms, 0841ms total)
T0E5C 001:256 JLINK_WriteReg(CFBP, 0x00000000)  returns 0x00 (0000ms, 0841ms total)
T0E5C 001:256 JLINK_SetBPEx(Addr = 0x20000000, Type = 0xFFFFFFF2)  returns 0x0000000B (0000ms, 0841ms total)
T0E5C 001:256 JLINK_Go() -- CPU_ReadMem(4 bytes @ 0xE0001000) (0006ms, 0847ms total)
T0E5C 001:262 JLINK_IsHalted()  returns FALSE (0001ms, 0848ms total)
T0E5C 001:264 JLINK_IsHalted()  returns FALSE (0001ms, 0848ms total)
T0E5C 001:266 JLINK_IsHalted()  returns FALSE (0001ms, 0848ms total)
T0E5C 001:269 JLINK_IsHalted()  returns FALSE (0001ms, 0848ms total)
T0E5C 001:271 JLINK_IsHalted()  returns FALSE (0001ms, 0848ms total)
T0E5C 001:273 JLINK_IsHalted()  returns FALSE (0001ms, 0848ms total)
T0E5C 001:275 JLINK_IsHalted() -- CPU_ReadMem(2 bytes @ 0x20000000)  returns TRUE (0004ms, 0851ms total)
T0E5C 001:279 JLINK_ReadReg(R15 (PC))  returns 0x20000000 (0000ms, 0847ms total)
T0E5C 001:279 JLINK_ClrBPEx(BPHandle = 0x0000000B)  returns 0x00 (0000ms, 0847ms total)
T0E5C 001:279 JLINK_ReadReg(R0)  returns 0x00000000 (0000ms, 0847ms total)
T0E5C 001:280 JLINK_WriteMem(0x20000530, 0x0200 Bytes, ...) - Data: 6C 5F 66 6C 65 78 63 61 6E 2E 63 00 73 5F 66 6C ... -- CPU_WriteMem(512 bytes @ 0x20000530)  returns 0x200 (0006ms, 0853ms total)
T0E5C 001:286 JLINK_WriteReg(R0, 0x00000E00)  returns 0x00 (0000ms, 0853ms total)
T0E5C 001:286 JLINK_WriteReg(R1, 0x00000200)  returns 0x00 (0000ms, 0853ms total)
T0E5C 001:286 JLINK_WriteReg(R2, 0x20000530)  returns 0x00 (0000ms, 0853ms total)
T0E5C 001:286 JLINK_WriteReg(R3, 0x00000000)  returns 0x00 (0000ms, 0853ms total)
T0E5C 001:286 JLINK_WriteReg(R4, 0x00000000)  returns 0x00 (0000ms, 0853ms total)
T0E5C 001:286 JLINK_WriteReg(R5, 0x00000000)  returns 0x00 (0000ms, 0853ms total)
T0E5C 001:286 JLINK_WriteReg(R6, 0x00000000)  returns 0x00 (0000ms, 0853ms total)
T0E5C 001:286 JLINK_WriteReg(R7, 0x00000000)  returns 0x00 (0000ms, 0853ms total)
T0E5C 001:286 JLINK_WriteReg(R8, 0x00000000)  returns 0x00 (0000ms, 0853ms total)
T0E5C 001:286 JLINK_WriteReg(R9, 0x20000500)  returns 0x00 (0000ms, 0853ms total)
T0E5C 001:286 JLINK_WriteReg(R10, 0x00000000)  returns 0x00 (0000ms, 0853ms total)
T0E5C 001:286 JLINK_WriteReg(R11, 0x00000000)  returns 0x00 (0000ms, 0853ms total)
T0E5C 001:286 JLINK_WriteReg(R12, 0x00000000)  returns 0x00 (0000ms, 0853ms total)
T0E5C 001:286 JLINK_WriteReg(R13 (SP), 0x20001000)  returns 0x00 (0001ms, 0854ms total)
T0E5C 001:287 JLINK_WriteReg(R14, 0x20000001)  returns 0x00 (0000ms, 0854ms total)
T0E5C 001:287 JLINK_WriteReg(R15 (PC), 0x200000E2)  returns 0x00 (0000ms, 0854ms total)
T0E5C 001:287 JLINK_WriteReg(XPSR, 0x01000000)  returns 0x00 (0000ms, 0854ms total)
T0E5C 001:287 JLINK_WriteReg(MSP, 0x20001000)  returns 0x00 (0000ms, 0854ms total)
T0E5C 001:287 JLINK_WriteReg(PSP, 0x20001000)  returns 0x00 (0000ms, 0854ms total)
T0E5C 001:287 JLINK_WriteReg(CFBP, 0x00000000)  returns 0x00 (0000ms, 0854ms total)
T0E5C 001:287 JLINK_SetBPEx(Addr = 0x20000000, Type = 0xFFFFFFF2)  returns 0x0000000C (0000ms, 0854ms total)
T0E5C 001:287 JLINK_Go() -- CPU_ReadMem(4 bytes @ 0xE0001000) (0004ms, 0858ms total)
T0E5C 001:291 JLINK_IsHalted()  returns FALSE (0001ms, 0859ms total)
T0E5C 001:325 JLINK_IsHalted() -- CPU_ReadMem(2 bytes @ 0x20000000)  returns TRUE (0004ms, 0862ms total)
T0E5C 001:329 JLINK_ReadReg(R15 (PC))  returns 0x20000000 (0000ms, 0858ms total)
T0E5C 001:329 JLINK_ClrBPEx(BPHandle = 0x0000000C)  returns 0x00 (0000ms, 0858ms total)
T0E5C 001:329 JLINK_ReadReg(R0)  returns 0x00000000 (0000ms, 0858ms total)
T0E5C 001:330 JLINK_WriteMem(0x20000530, 0x0200 Bytes, ...) - Data: 10 A0 FF F7 73 FC 03 48 01 68 13 48 04 F0 50 FA ... -- CPU_WriteMem(512 bytes @ 0x20000530)  returns 0x200 (0006ms, 0864ms total)
T0E5C 001:336 JLINK_WriteReg(R0, 0x00001000)  returns 0x00 (0000ms, 0864ms total)
T0E5C 001:336 JLINK_WriteReg(R1, 0x00000200)  returns 0x00 (0000ms, 0864ms total)
T0E5C 001:336 JLINK_WriteReg(R2, 0x20000530)  returns 0x00 (0000ms, 0864ms total)
T0E5C 001:336 JLINK_WriteReg(R3, 0x00000000)  returns 0x00 (0000ms, 0864ms total)
T0E5C 001:336 JLINK_WriteReg(R4, 0x00000000)  returns 0x00 (0000ms, 0864ms total)
T0E5C 001:336 JLINK_WriteReg(R5, 0x00000000)  returns 0x00 (0000ms, 0864ms total)
T0E5C 001:336 JLINK_WriteReg(R6, 0x00000000)  returns 0x00 (0000ms, 0864ms total)
T0E5C 001:336 JLINK_WriteReg(R7, 0x00000000)  returns 0x00 (0000ms, 0864ms total)
T0E5C 001:336 JLINK_WriteReg(R8, 0x00000000)  returns 0x00 (0000ms, 0864ms total)
T0E5C 001:336 JLINK_WriteReg(R9, 0x20000500)  returns 0x00 (0000ms, 0864ms total)
T0E5C 001:336 JLINK_WriteReg(R10, 0x00000000)  returns 0x00 (0000ms, 0864ms total)
T0E5C 001:336 JLINK_WriteReg(R11, 0x00000000)  returns 0x00 (0000ms, 0864ms total)
T0E5C 001:336 JLINK_WriteReg(R12, 0x00000000)  returns 0x00 (0000ms, 0864ms total)
T0E5C 001:336 JLINK_WriteReg(R13 (SP), 0x20001000)  returns 0x00 (0000ms, 0864ms total)
T0E5C 001:336 JLINK_WriteReg(R14, 0x20000001)  returns 0x00 (0000ms, 0864ms total)
T0E5C 001:336 JLINK_WriteReg(R15 (PC), 0x200000E2)  returns 0x00 (0000ms, 0864ms total)
T0E5C 001:336 JLINK_WriteReg(XPSR, 0x01000000)  returns 0x00 (0000ms, 0864ms total)
T0E5C 001:336 JLINK_WriteReg(MSP, 0x20001000)  returns 0x00 (0000ms, 0864ms total)
T0E5C 001:336 JLINK_WriteReg(PSP, 0x20001000)  returns 0x00 (0000ms, 0864ms total)
T0E5C 001:336 JLINK_WriteReg(CFBP, 0x00000000)  returns 0x00 (0000ms, 0864ms total)
T0E5C 001:336 JLINK_SetBPEx(Addr = 0x20000000, Type = 0xFFFFFFF2)  returns 0x0000000D (0001ms, 0865ms total)
T0E5C 001:337 JLINK_Go() -- CPU_ReadMem(4 bytes @ 0xE0001000) (0005ms, 0870ms total)
T0E5C 001:342 JLINK_IsHalted()  returns FALSE (0001ms, 0871ms total)
T0E5C 001:344 JLINK_IsHalted()  returns FALSE (0001ms, 0871ms total)
T0E5C 001:346 JLINK_IsHalted()  returns FALSE (0001ms, 0871ms total)
T0E5C 001:348 JLINK_IsHalted()  returns FALSE (0001ms, 0871ms total)
T0E5C 001:350 JLINK_IsHalted()  returns FALSE (0001ms, 0871ms total)
T0E5C 001:352 JLINK_IsHalted()  returns FALSE (0001ms, 0871ms total)
T0E5C 001:354 JLINK_IsHalted() -- CPU_ReadMem(2 bytes @ 0x20000000)  returns TRUE (0004ms, 0874ms total)
T0E5C 001:358 JLINK_ReadReg(R15 (PC))  returns 0x20000000 (0000ms, 0870ms total)
T0E5C 001:358 JLINK_ClrBPEx(BPHandle = 0x0000000D)  returns 0x00 (0000ms, 0870ms total)
T0E5C 001:358 JLINK_ReadReg(R0)  returns 0x00000000 (0000ms, 0870ms total)
T0E5C 001:359 JLINK_WriteMem(0x20000530, 0x0200 Bytes, ...) - Data: 64 6C 65 5B 31 5D 00 00 00 50 02 40 10 B5 08 48 ... -- CPU_WriteMem(512 bytes @ 0x20000530)  returns 0x200 (0006ms, 0876ms total)
T0E5C 001:365 JLINK_WriteReg(R0, 0x00001200)  returns 0x00 (0000ms, 0876ms total)
T0E5C 001:365 JLINK_WriteReg(R1, 0x00000200)  returns 0x00 (0000ms, 0876ms total)
T0E5C 001:365 JLINK_WriteReg(R2, 0x20000530)  returns 0x00 (0000ms, 0876ms total)
T0E5C 001:365 JLINK_WriteReg(R3, 0x00000000)  returns 0x00 (0000ms, 0876ms total)
T0E5C 001:365 JLINK_WriteReg(R4, 0x00000000)  returns 0x00 (0000ms, 0876ms total)
T0E5C 001:365 JLINK_WriteReg(R5, 0x00000000)  returns 0x00 (0000ms, 0876ms total)
T0E5C 001:365 JLINK_WriteReg(R6, 0x00000000)  returns 0x00 (0000ms, 0876ms total)
T0E5C 001:365 JLINK_WriteReg(R7, 0x00000000)  returns 0x00 (0000ms, 0876ms total)
T0E5C 001:365 JLINK_WriteReg(R8, 0x00000000)  returns 0x00 (0000ms, 0876ms total)
T0E5C 001:365 JLINK_WriteReg(R9, 0x20000500)  returns 0x00 (0000ms, 0876ms total)
T0E5C 001:365 JLINK_WriteReg(R10, 0x00000000)  returns 0x00 (0000ms, 0876ms total)
T0E5C 001:365 JLINK_WriteReg(R11, 0x00000000)  returns 0x00 (0000ms, 0876ms total)
T0E5C 001:365 JLINK_WriteReg(R12, 0x00000000)  returns 0x00 (0000ms, 0876ms total)
T0E5C 001:365 JLINK_WriteReg(R13 (SP), 0x20001000)  returns 0x00 (0000ms, 0876ms total)
T0E5C 001:365 JLINK_WriteReg(R14, 0x20000001)  returns 0x00 (0000ms, 0876ms total)
T0E5C 001:365 JLINK_WriteReg(R15 (PC), 0x200000E2)  returns 0x00 (0000ms, 0876ms total)
T0E5C 001:365 JLINK_WriteReg(XPSR, 0x01000000)  returns 0x00 (0000ms, 0876ms total)
T0E5C 001:365 JLINK_WriteReg(MSP, 0x20001000)  returns 0x00 (0000ms, 0876ms total)
T0E5C 001:365 JLINK_WriteReg(PSP, 0x20001000)  returns 0x00 (0000ms, 0876ms total)
T0E5C 001:365 JLINK_WriteReg(CFBP, 0x00000000)  returns 0x00 (0000ms, 0876ms total)
T0E5C 001:365 JLINK_SetBPEx(Addr = 0x20000000, Type = 0xFFFFFFF2)  returns 0x0000000E (0000ms, 0876ms total)
T0E5C 001:365 JLINK_Go() -- CPU_ReadMem(4 bytes @ 0xE0001000) (0004ms, 0880ms total)
T0E5C 001:369 JLINK_IsHalted()  returns FALSE (0001ms, 0881ms total)
T0E5C 001:371 JLINK_IsHalted()  returns FALSE (0000ms, 0880ms total)
T0E5C 001:372 JLINK_IsHalted()  returns FALSE (0002ms, 0882ms total)
T0E5C 001:375 JLINK_IsHalted()  returns FALSE (0001ms, 0881ms total)
T0E5C 001:377 JLINK_IsHalted()  returns FALSE (0001ms, 0881ms total)
T0E5C 001:379 JLINK_IsHalted()  returns FALSE (0001ms, 0881ms total)
T0E5C 001:381 JLINK_IsHalted()  returns FALSE (0001ms, 0881ms total)
T0E5C 001:383 JLINK_IsHalted() -- CPU_ReadMem(2 bytes @ 0x20000000)  returns TRUE (0005ms, 0885ms total)
T0E5C 001:388 JLINK_ReadReg(R15 (PC))  returns 0x20000000 (0000ms, 0880ms total)
T0E5C 001:388 JLINK_ClrBPEx(BPHandle = 0x0000000E)  returns 0x00 (0000ms, 0880ms total)
T0E5C 001:388 JLINK_ReadReg(R0)  returns 0x00000000 (0000ms, 0880ms total)
T0E5C 001:389 JLINK_WriteMem(0x20000530, 0x0200 Bytes, ...) - Data: 5C 4D 4B 53 32 32 46 31 32 5C 64 72 69 76 65 72 ... -- CPU_WriteMem(512 bytes @ 0x20000530)  returns 0x200 (0006ms, 0886ms total)
T0E5C 001:395 JLINK_WriteReg(R0, 0x00001400)  returns 0x00 (0000ms, 0886ms total)
T0E5C 001:395 JLINK_WriteReg(R1, 0x00000200)  returns 0x00 (0000ms, 0886ms total)
T0E5C 001:395 JLINK_WriteReg(R2, 0x20000530)  returns 0x00 (0000ms, 0886ms total)
T0E5C 001:395 JLINK_WriteReg(R3, 0x00000000)  returns 0x00 (0000ms, 0886ms total)
T0E5C 001:395 JLINK_WriteReg(R4, 0x00000000)  returns 0x00 (0000ms, 0886ms total)
T0E5C 001:395 JLINK_WriteReg(R5, 0x00000000)  returns 0x00 (0000ms, 0886ms total)
T0E5C 001:395 JLINK_WriteReg(R6, 0x00000000)  returns 0x00 (0000ms, 0886ms total)
T0E5C 001:395 JLINK_WriteReg(R7, 0x00000000)  returns 0x00 (0000ms, 0886ms total)
T0E5C 001:395 JLINK_WriteReg(R8, 0x00000000)  returns 0x00 (0000ms, 0886ms total)
T0E5C 001:395 JLINK_WriteReg(R9, 0x20000500)  returns 0x00 (0001ms, 0887ms total)
T0E5C 001:396 JLINK_WriteReg(R10, 0x00000000)  returns 0x00 (0000ms, 0887ms total)
T0E5C 001:396 JLINK_WriteReg(R11, 0x00000000)  returns 0x00 (0000ms, 0887ms total)
T0E5C 001:396 JLINK_WriteReg(R12, 0x00000000)  returns 0x00 (0000ms, 0887ms total)
T0E5C 001:396 JLINK_WriteReg(R13 (SP), 0x20001000)  returns 0x00 (0000ms, 0887ms total)
T0E5C 001:396 JLINK_WriteReg(R14, 0x20000001)  returns 0x00 (0000ms, 0887ms total)
T0E5C 001:396 JLINK_WriteReg(R15 (PC), 0x200000E2)  returns 0x00 (0000ms, 0887ms total)
T0E5C 001:396 JLINK_WriteReg(XPSR, 0x01000000)  returns 0x00 (0000ms, 0887ms total)
T0E5C 001:396 JLINK_WriteReg(MSP, 0x20001000)  returns 0x00 (0000ms, 0887ms total)
T0E5C 001:396 JLINK_WriteReg(PSP, 0x20001000)  returns 0x00 (0000ms, 0887ms total)
T0E5C 001:396 JLINK_WriteReg(CFBP, 0x00000000)  returns 0x00 (0000ms, 0887ms total)
T0E5C 001:396 JLINK_SetBPEx(Addr = 0x20000000, Type = 0xFFFFFFF2)  returns 0x0000000F (0000ms, 0887ms total)
T0E5C 001:396 JLINK_Go() -- CPU_ReadMem(4 bytes @ 0xE0001000) (0005ms, 0892ms total)
T0E5C 001:401 JLINK_IsHalted()  returns FALSE (0001ms, 0893ms total)
T0E5C 001:435 JLINK_IsHalted() -- CPU_ReadMem(2 bytes @ 0x20000000)  returns TRUE (0004ms, 0896ms total)
T0E5C 001:439 JLINK_ReadReg(R15 (PC))  returns 0x20000000 (0000ms, 0892ms total)
T0E5C 001:439 JLINK_ClrBPEx(BPHandle = 0x0000000F)  returns 0x00 (0000ms, 0892ms total)
T0E5C 001:439 JLINK_ReadReg(R0)  returns 0x00000000 (0000ms, 0892ms total)
T0E5C 001:440 JLINK_WriteMem(0x20000530, 0x0200 Bytes, ...) - Data: 54 00 00 20 10 B5 00 F0 69 F8 04 46 34 B1 00 F0 ... -- CPU_WriteMem(512 bytes @ 0x20000530)  returns 0x200 (0006ms, 0898ms total)
T0E5C 001:446 JLINK_WriteReg(R0, 0x00001600)  returns 0x00 (0000ms, 0898ms total)
T0E5C 001:446 JLINK_WriteReg(R1, 0x00000200)  returns 0x00 (0000ms, 0898ms total)
T0E5C 001:446 JLINK_WriteReg(R2, 0x20000530)  returns 0x00 (0000ms, 0898ms total)
T0E5C 001:446 JLINK_WriteReg(R3, 0x00000000)  returns 0x00 (0000ms, 0898ms total)
T0E5C 001:446 JLINK_WriteReg(R4, 0x00000000)  returns 0x00 (0000ms, 0898ms total)
T0E5C 001:446 JLINK_WriteReg(R5, 0x00000000)  returns 0x00 (0000ms, 0898ms total)
T0E5C 001:446 JLINK_WriteReg(R6, 0x00000000)  returns 0x00 (0000ms, 0898ms total)
T0E5C 001:446 JLINK_WriteReg(R7, 0x00000000)  returns 0x00 (0000ms, 0898ms total)
T0E5C 001:446 JLINK_WriteReg(R8, 0x00000000)  returns 0x00 (0000ms, 0898ms total)
T0E5C 001:446 JLINK_WriteReg(R9, 0x20000500)  returns 0x00 (0000ms, 0898ms total)
T0E5C 001:446 JLINK_WriteReg(R10, 0x00000000)  returns 0x00 (0000ms, 0898ms total)
T0E5C 001:446 JLINK_WriteReg(R11, 0x00000000)  returns 0x00 (0000ms, 0898ms total)
T0E5C 001:446 JLINK_WriteReg(R12, 0x00000000)  returns 0x00 (0000ms, 0898ms total)
T0E5C 001:446 JLINK_WriteReg(R13 (SP), 0x20001000)  returns 0x00 (0000ms, 0898ms total)
T0E5C 001:446 JLINK_WriteReg(R14, 0x20000001)  returns 0x00 (0000ms, 0898ms total)
T0E5C 001:446 JLINK_WriteReg(R15 (PC), 0x200000E2)  returns 0x00 (0000ms, 0898ms total)
T0E5C 001:446 JLINK_WriteReg(XPSR, 0x01000000)  returns 0x00 (0000ms, 0898ms total)
T0E5C 001:446 JLINK_WriteReg(MSP, 0x20001000)  returns 0x00 (0000ms, 0898ms total)
T0E5C 001:446 JLINK_WriteReg(PSP, 0x20001000)  returns 0x00 (0000ms, 0898ms total)
T0E5C 001:446 JLINK_WriteReg(CFBP, 0x00000000)  returns 0x00 (0000ms, 0898ms total)
T0E5C 001:446 JLINK_SetBPEx(Addr = 0x20000000, Type = 0xFFFFFFF2)  returns 0x00000010 (0000ms, 0898ms total)
T0E5C 001:446 JLINK_Go() -- CPU_ReadMem(4 bytes @ 0xE0001000) (0004ms, 0902ms total)
T0E5C 001:450 JLINK_IsHalted()  returns FALSE (0001ms, 0903ms total)
T0E5C 001:452 JLINK_IsHalted()  returns FALSE (0000ms, 0902ms total)
T0E5C 001:453 JLINK_IsHalted()  returns FALSE (0000ms, 0902ms total)
T0E5C 001:454 JLINK_IsHalted()  returns FALSE (0000ms, 0902ms total)
T0E5C 001:455 JLINK_IsHalted()  returns FALSE (0000ms, 0902ms total)
